<Qucs Dataset 26.1.1>
<indep time 207>
0.000000000000e+00
2.512560000000e-07
5.025120000000e-07
1.005024000000e-06
2.010048000000e-06
4.020096000000e-06
8.040192000000e-06
1.608038400000e-05
3.216076800000e-05
5.728636800000e-05
8.241196800000e-05
1.075375680000e-04
1.326631680000e-04
1.577887680000e-04
1.829143680000e-04
2.080399680000e-04
2.331655680000e-04
2.582911680000e-04
2.834167680000e-04
3.085423680000e-04
3.336679680000e-04
3.587935680000e-04
3.839191680000e-04
4.090447680000e-04
4.341703680000e-04
4.592959680000e-04
4.844215680000e-04
5.095471680000e-04
5.346727680000e-04
5.597983680000e-04
5.849239680000e-04
6.100495680000e-04
6.351751680000e-04
6.603007680000e-04
6.854263680000e-04
7.105519680000e-04
7.356775680000e-04
7.608031680000e-04
7.859287680000e-04
8.110543680000e-04
8.361799680000e-04
8.613055680000e-04
8.864311680000e-04
9.115567680000e-04
9.366823680000e-04
9.618079680000e-04
9.869335680000e-04
1.012059168000e-03
1.037184768000e-03
1.062310368000e-03
1.087435968000e-03
1.112561568000e-03
1.137687168000e-03
1.162812768000e-03
1.187938368000e-03
1.213063968000e-03
1.238189568000e-03
1.263315168000e-03
1.288440768000e-03
1.313566368000e-03
1.338691968000e-03
1.363817568000e-03
1.388943168000e-03
1.414068768000e-03
1.439194368000e-03
1.464319968000e-03
1.489445568000e-03
1.514571168000e-03
1.539696768000e-03
1.564822368000e-03
1.589947968000e-03
1.615073568000e-03
1.640199168000e-03
1.665324768000e-03
1.690450368000e-03
1.715575968000e-03
1.740701568000e-03
1.765827168000e-03
1.790952768000e-03
1.816078368000e-03
1.841203968000e-03
1.866329568000e-03
1.891455168000e-03
1.916580768000e-03
1.941706368000e-03
1.966831968000e-03
1.991957568000e-03
2.017083168000e-03
2.042208768000e-03
2.067334368000e-03
2.092459968000e-03
2.117585568000e-03
2.142711168000e-03
2.167836768000e-03
2.192962368000e-03
2.218087968000e-03
2.243213568000e-03
2.268339168000e-03
2.293464768000e-03
2.318590368000e-03
2.343715968000e-03
2.368841568000e-03
2.393967168000e-03
2.419092768000e-03
2.444218368000e-03
2.469343968000e-03
2.494469568000e-03
2.519595168000e-03
2.544720768000e-03
2.569846368000e-03
2.594971968000e-03
2.620097568000e-03
2.645223168000e-03
2.670348768000e-03
2.695474368000e-03
2.720599968000e-03
2.745725568000e-03
2.770851168000e-03
2.795976768000e-03
2.821102368000e-03
2.846227968000e-03
2.871353568000e-03
2.896479168000e-03
2.921604768000e-03
2.946730368000e-03
2.971855968000e-03
2.996981568000e-03
3.022107168000e-03
3.047232768000e-03
3.072358368000e-03
3.097483968000e-03
3.122609568000e-03
3.147735168000e-03
3.172860768000e-03
3.197986368000e-03
3.223111968000e-03
3.248237568000e-03
3.273363168000e-03
3.298488768000e-03
3.323614368000e-03
3.348739968000e-03
3.373865568000e-03
3.398991168000e-03
3.424116768000e-03
3.449242368000e-03
3.474367968000e-03
3.499493568000e-03
3.524619168000e-03
3.549744768000e-03
3.574870368000e-03
3.599995968000e-03
3.625121568000e-03
3.650247168000e-03
3.675372768000e-03
3.700498368000e-03
3.725623968000e-03
3.750749568000e-03
3.775875168000e-03
3.801000768000e-03
3.826126368000e-03
3.851251968000e-03
3.876377568000e-03
3.901503168000e-03
3.926628768000e-03
3.951754368000e-03
3.976879968000e-03
4.002005568000e-03
4.027131168000e-03
4.052256768000e-03
4.077382368000e-03
4.102507968000e-03
4.127633568000e-03
4.152759168000e-03
4.177884768000e-03
4.203010368000e-03
4.228135968000e-03
4.253261568000e-03
4.278387168000e-03
4.303512768000e-03
4.328638368000e-03
4.353763968000e-03
4.378889568000e-03
4.404015168000e-03
4.429140768000e-03
4.454266368000e-03
4.479391968000e-03
4.504517568000e-03
4.529643168000e-03
4.554768768000e-03
4.579894368000e-03
4.605019968000e-03
4.630145568000e-03
4.655271168000e-03
4.680396768000e-03
4.705522368000e-03
4.730647968000e-03
4.755773568000e-03
4.780899168000e-03
4.806024768000e-03
4.831150368000e-03
4.856275968000e-03
4.881401568000e-03
4.906527168000e-03
4.931652768000e-03
4.956778368000e-03
4.978389184000e-03
5.000000000000e-03
</indep>
<dep tran.v(pr2) time>
0.000000000000e+00
-7.387827882788e-08
-1.464746406388e-07
-2.743040390385e-07
-4.418672947537e-07
-5.876314785880e-07
-6.438142661214e-07
-6.412449644611e-07
-6.421683256264e-07
-6.419058569129e-07
-6.416443159019e-07
-6.425357956807e-07
-6.410159067993e-07
-6.419151175052e-07
-6.412796891286e-07
-6.414162210255e-07
-6.413869877431e-07
-6.404892054501e-07
-6.405956149980e-07
-6.412406829970e-07
-6.397290257532e-07
-6.405075789750e-07
-6.393322382614e-07
-6.400875611767e-07
-6.389826974207e-07
-6.393681692973e-07
-6.387004511943e-07
-6.388006501545e-07
-6.386053030827e-07
-6.379469323914e-07
-6.385111508411e-07
-6.372754584039e-07
-6.382776576164e-07
-6.364391151870e-07
-6.378026935483e-07
-6.361518487541e-07
-6.373286698391e-07
-6.358595887601e-07
-6.361264153210e-07
-6.362531645987e-07
-6.352781818375e-07
-6.352809718280e-07
-6.357369317644e-07
-6.347043308708e-07
-6.349540249140e-07
-6.340981033581e-07
-6.342647564939e-07
-6.339517246712e-07
-6.339267955013e-07
-6.334651614370e-07
-6.333188347085e-07
-6.332460771308e-07
-6.328559440938e-07
-6.325542865060e-07
-6.326205117535e-07
-6.318757459489e-07
-6.322485361920e-07
-6.315726783779e-07
-6.313657539003e-07
-6.315527412148e-07
-6.305942013007e-07
-6.311188316399e-07
-6.304346196195e-07
-6.303365640559e-07
-6.301748853854e-07
-6.295648034005e-07
-6.295645755827e-07
-6.294388212869e-07
-6.289325391595e-07
-6.292998848689e-07
-6.289031078133e-07
-6.279310780233e-07
-6.288145053546e-07
-6.273309218763e-07
-6.281851518963e-07
-6.274693058472e-07
-6.273027206571e-07
-6.268722079206e-07
-6.276345621004e-07
-6.259024944999e-07
-6.272105970151e-07
-6.253693343172e-07
-6.267782168834e-07
-6.249972928085e-07
-6.256447715458e-07
-6.255259983323e-07
-6.246216053274e-07
-6.251213175990e-07
-6.240270606916e-07
-6.250571795707e-07
-6.233537104272e-07
-6.243071097867e-07
-6.235533358545e-07
-6.235098088947e-07
-6.229829121462e-07
-6.228551447940e-07
-6.230634614912e-07
-6.220581816319e-07
-6.225589950226e-07
-6.223576207720e-07
-6.213451189119e-07
-6.218911161593e-07
-6.215266536991e-07
-6.206788261132e-07
-6.213758305673e-07
-6.204622986505e-07
-6.207988467732e-07
-6.197689947918e-07
-6.205282339078e-07
-6.195982071855e-07
-6.198252464618e-07
-6.189925936262e-07
-6.195057977720e-07
-6.188561831877e-07
-6.181723000154e-07
-6.192898907020e-07
-6.175257967200e-07
-6.187956365089e-07
-6.173176376745e-07
-6.173381692509e-07
-6.178342124574e-07
-6.165540356040e-07
-6.172002611216e-07
-6.165492536514e-07
-6.165727493013e-07
-6.161782390990e-07
-6.161288557127e-07
-6.157278542585e-07
-6.156310095040e-07
-6.152411609062e-07
-6.151432645485e-07
-6.150116387271e-07
-6.141240547208e-07
-6.150042966002e-07
-6.136515613431e-07
-6.143758330968e-07
-6.136307868498e-07
-6.133481096349e-07
-6.129165279756e-07
-6.135810934893e-07
-6.125577725058e-07
-6.128286222928e-07
-6.122070563830e-07
-6.119278808114e-07
-6.123443669903e-07
-6.109606278670e-07
-6.117272601802e-07
-6.113730754986e-07
-6.107540979627e-07
-6.107297143565e-07
-6.107454164628e-07
-6.103323919593e-07
-6.103794301104e-07
-6.099146485639e-07
-6.097430063079e-07
-6.095570119768e-07
-6.095173659126e-07
-6.088677249050e-07
-6.091416935305e-07
-6.084084476221e-07
-6.086254524806e-07
-6.077360430456e-07
-6.081440127037e-07
-6.077764371781e-07
-6.076686001055e-07
-6.072059020035e-07
-6.071124640794e-07
-6.065116537890e-07
-6.070548936865e-07
-6.059867345698e-07
-6.062717841093e-07
-6.052689525138e-07
-6.065051763038e-07
-6.046534923865e-07
-6.060424047050e-07
-6.044885800804e-07
-6.049613601178e-07
-6.050390648493e-07
-6.039170681316e-07
-6.043612934548e-07
-6.039207676167e-07
-6.039959523640e-07
-6.032074493234e-07
-6.036375741481e-07
-6.026958105920e-07
-6.032619352947e-07
-6.023876661931e-07
-6.026585264163e-07
-6.016595681668e-07
-6.023727350257e-07
-6.017458300533e-07
-6.011301885156e-07
-6.016527700492e-07
-6.007879194136e-07
-6.014350752981e-07
-5.996998797553e-07
-6.012140021383e-07
-6.002798409455e-07
-5.998664467377e-07
-5.995912559786e-07
-5.999351466723e-07
-5.989770943682e-07
-5.996667236108e-07
-5.982549360350e-07
-5.990328071359e-07
-5.987475399927e-07
-5.978127004536e-07
</dep>
<dep tran.v(pr3) time>
0.000000000000e+00
7.893436758959e-04
1.578685384546e-03
3.157355031153e-03
6.314584159741e-03
1.262816112908e-02
2.524826569885e-02
5.043210975961e-02
1.003498322364e-01
1.761094445369e-01
2.474890670067e-01
3.127134284710e-01
3.701603442668e-01
4.184010613386e-01
4.562357925272e-01
4.827235562837e-01
4.972055796721e-01
4.993216826045e-01
4.890192358234e-01
4.665544698351e-01
4.324861022418e-01
3.876614419654e-01
3.331953159630e-01
2.704423425440e-01
2.009632408743e-01
1.264860145801e-01
4.886297484565e-02
-2.997532812169e-02
-1.080681194971e-01
-1.834731659555e-01
-2.543150806455e-01
-3.188319656364e-01
-3.754192317995e-01
-4.226695062878e-01
-4.594076350812e-01
-4.847199100536e-01
-4.979767936625e-01
-4.988485760757e-01
-4.873135753322e-01
-4.636586765907e-01
-4.284721970549e-01
-3.826292540300e-01
-3.272700000205e-01
-2.637712661795e-01
-1.937123193612e-01
-1.188355844278e-01
-4.100330867896e-02
3.784875380253e-02
1.157594859812e-01
1.907911824970e-01
2.610777420254e-01
3.248710787850e-01
3.805845988995e-01
4.268326603202e-01
4.624650349077e-01
4.865955155722e-01
4.986239569883e-01
4.982512017131e-01
4.854865204834e-01
4.606473816447e-01
4.243515554467e-01
3.775017495780e-01
3.212631580680e-01
2.570344819320e-01
1.864131423024e-01
1.111555512229e-01
3.313342820557e-02
-4.571275100572e-02
-1.234220156974e-01
-1.980616711751e-01
-2.677753665042e-01
-3.308292635172e-01
-3.856551588256e-01
-4.308894863551e-01
-4.654072303799e-01
-4.883499056087e-01
-4.991469084350e-01
-4.975297083282e-01
-4.835385264135e-01
-4.575213351388e-01
-4.201252039075e-01
-3.722802059188e-01
-3.151762864659e-01
-2.502336679973e-01
-1.790675279908e-01
-1.034478281332e-01
-2.525529388614e-02
5.356536073621e-02
1.310537998382e-01
2.052828208433e-01
2.744062856413e-01
3.367050355938e-01
3.906296484540e-01
4.348389737994e-01
4.682334885695e-01
4.899826431281e-01
4.995455177304e-01
4.966842756517e-01
4.814700783860e-01
4.542813158003e-01
4.157941952608e-01
3.669659237874e-01
3.090109015108e-01
2.433705185216e-01
1.716773062876e-01
9.571433522456e-02
1.737086823739e-02
-6.140462683566e-02
-1.386529372549e-01
-2.124528326459e-01
-2.809688476129e-01
-3.424969313051e-01
-3.955068285931e-01
-4.386801387989e-01
-4.709431054291e-01
-4.914933214002e-01
-4.998196855774e-01
-4.957151142888e-01
-4.792816916705e-01
-4.509281307483e-01
-4.113596084014e-01
-3.615602270211e-01
-3.027685390574e-01
-2.364467431795e-01
-1.642443181659e-01
-8.795699898212e-02
-9.482115343315e-03
6.922859646976e-02
1.462175349315e-01
2.195699204659e-01
2.874614176234e-01
3.482035078358e-01
4.002854842916e-01
4.424120244836e-01
4.735354059680e-01
4.928815641012e-01
4.999693436782e-01
4.946224656667e-01
4.769739114147e-01
4.474626152924e-01
4.068225480261e-01
3.560644622294e-01
2.964507541366e-01
2.294640667479e-01
1.567704152523e-01
8.017775183073e-02
1.591000365854e-03
-7.703532061468e-02
-1.537457084562e-01
-2.266323113706e-01
-2.938823783133e-01
-3.538233436245e-01
-4.049644251419e-01
-4.460337012060e-01
-4.760097444199e-01
-4.941470254066e-01
-4.999944547514e-01
-4.934066019743e-01
-4.745473125080e-01
-4.438856327249e-01
-4.021841443591e-01
-3.504799984587e-01
-2.900591205675e-01
-2.224242286767e-01
-1.492574593659e-01
-7.237853165342e-02
6.300510944638e-03
8.482285454260e-02
1.612355824906e-01
2.336382460523e-01
3.002301301613e-01
3.593550387176e-01
4.095424855762e-01
4.495442667726e-01
4.783655044039e-01
4.952893900783e-01
4.998950125418e-01
4.920678260946e-01
4.720024994390e-01
4.401980741055e-01
3.974455528699e-01
3.448082268509e-01
2.835952305657e-01
2.153289826553e-01
1.417073220541e-01
6.456128130869e-02
-1.419045273908e-02
-9.258925830619e-02
-1.686852912374e-01
-2.405859792674e-01
-3.065030918831e-01
-3.647972151183e-01
-4.140185251569e-01
-4.529428466687e-01
-4.806020990784e-01
-4.963083735427e-01
-4.996710418213e-01
-4.906064715291e-01
-4.693401061444e-01
-4.364008580394e-01
-3.926079539860e-01
-3.390505602972e-01
-2.770606943464e-01
-2.081800961756e-01
-1.341218841263e-01
-6.768394538274e-02
-6.123233995737e-16
</dep>
<dep tran.v(pr4) time>
0.000000000000e+00
2.492151268945e-05
9.967350465267e-05
3.984933193187e-04
1.590764544597e-03
6.311875395798e-03
2.443855917135e-02
8.543435740959e-02
1.807260372208e-01
-1.556772529568e-01
-4.422649426606e-01
2.852524515683e-01
6.561502262920e-01
-3.933649107861e-01
-8.019585191039e-01
4.672308234316e-01
8.663784322013e-01
-4.970286619312e-01
-8.444309229644e-01
4.771274864035e-01
7.398296700150e-01
-4.069132293159e-01
-5.644584509820e-01
2.911039456528e-01
3.370329927358e-01
-1.394975168449e-01
-8.109694925788e-02
-3.384406899660e-02
-1.774328007335e-01
2.119074672108e-01
4.129139698785e-01
-3.764143194199e-01
-6.025470294478e-01
5.097124062368e-01
7.286040814866e-01
-5.966745353772e-01
-7.800983929183e-01
6.264004682883e-01
7.537360893939e-01
-5.935316707742e-01
-6.540682267096e-01
4.990243052617e-01
4.928451318583e-01
-3.502793672093e-01
-2.876567261151e-01
1.605948734761e-01
6.001404988985e-02
5.202329442182e-02
1.669188257000e-01
-2.665855214443e-01
-3.707021542117e-01
4.612109444366e-01
5.318612086454e-01
-6.153776796803e-01
-6.357644305036e-01
7.120975828904e-01
6.739561707837e-01
-7.397840737254e-01
-6.448221620933e-01
6.936080266596e-01
5.535380548367e-01
-5.761856664459e-01
-4.113269166054e-01
3.975090886007e-01
2.341225272802e-01
-1.741077330440e-01
-4.079426407759e-02
-7.249016417861e-02
-1.488695468872e-01
3.178519456187e-01
3.162036120881e-01
-5.370849851071e-01
-4.455207004284e-01
7.073843289996e-01
5.255935695971e-01
-8.104206575073e-01
-5.506226255856e-01
8.343170439717e-01
5.206067077048e-01
-7.750009657228e-01
-4.410999096973e-01
6.367790974119e-01
3.224026470645e-01
-4.320605664506e-01
-1.782932897818e-01
1.802416395655e-01
2.445158274533e-02
9.414778028894e-02
1.232476583527e-01
-3.638571061831e-01
-2.503848671674e-01
6.016477684379e-01
3.454173475953e-01
-7.830690481636e-01
-4.007306566877e-01
8.889917606195e-01
4.132236154850e-01
-9.076353888424e-01
-3.843850476311e-01
8.358729155535e-01
3.198771950635e-01
-6.796692976640e-01
-2.286939002293e-01
4.535970867477e-01
1.220053401875e-01
-1.794671915168e-01
-1.183082437665e-02
-1.157955493115e-01
-9.030591881265e-02
4.028230277959e-01
1.745893286090e-01
-6.527532732342e-01
-2.338642019321e-01
8.401596289873e-01
2.642342167195e-01
-9.456598117063e-01
-2.652577440135e-01
9.579350047217e-01
2.397400301746e-01
-8.749472886019e-01
-1.931672342338e-01
7.042241863686e-01
1.328672148170e-01
-4.621737444773e-01
-6.701004815211e-02
1.724926971253e-01
3.575113859395e-03
1.361763483437e-01
5.058997902106e-02
-4.331048036428e-01
-9.050970180053e-02
6.885667805077e-01
1.135400133238e-01
-8.768432111987e-01
-1.195041958800e-01
9.788350681512e-01
1.105039101768e-01
-9.840178536369e-01
-9.044463747411e-02
8.915357124316e-01
6.434912899609e-02
-7.103206621815e-01
-3.755695812339e-02
4.582216328671e-01
1.491998014465e-02
-1.602290781641e-01
-1.012343718373e-04
-1.540265354220e-01
-4.930936099619e-03
4.532495877351e-01
1.489031645147e-04
-7.076260437813e-01
1.257770844681e-02
8.918227301121e-01
-2.980608122898e-02
-9.875346257441e-01
4.707881533173e-02
9.853216529164e-01
-5.963985257702e-02
-8.855489272263e-01
6.320916409464e-02
6.983359118329e-01
-5.470890893824e-02
-4.425210027620e-01
3.283876024087e-02
1.437483554760e-01
1.583700400263e-03
1.681270546392e-01
-4.557234181372e-02
-4.620512033873e-01
9.422958367404e-02
7.088930190929e-01
-1.412893206170e-01
-8.843598256012e-01
1.798856899936e-01
9.714116781005e-01
-2.034562492553e-01
-9.619323103020e-01
2.066673212205e-01
8.574912203069e-01
-1.862419209464e-01
-6.691247784412e-01
1.415780367597e-01
4.161644787291e-01
-7.506658902926e-02
-1.242372490015e-01
-7.948099167295e-03
-1.773538352785e-01
9.958073647430e-02
4.585985058619e-01
-1.901606307993e-01
-6.917944429146e-01
2.692573189554e-01
8.543028434589e-01
-3.268670233442e-01
-9.307676611674e-01
3.546262130012e-01
9.145788206928e-01
-3.469090246134e-01
-8.084387311736e-01
3.016723669565e-01
6.239840974715e-01
-2.209359181798e-01
-3.805117062868e-01
1.108217481198e-01
1.323101975532e-01
-2.405679913502e-30
</dep>
<indep frequency 33>
0.000000000000e+00
6.250000000000e+03
1.250000000000e+04
1.875000000000e+04
2.500000000000e+04
3.125000000000e+04
3.750000000000e+04
4.375000000000e+04
5.000000000000e+04
5.625000000000e+04
6.250000000000e+04
6.875000000000e+04
7.500000000000e+04
8.125000000000e+04
8.750000000000e+04
9.375000000000e+04
1.000000000000e+05
1.062500000000e+05
1.125000000000e+05
1.187500000000e+05
1.250000000000e+05
1.312500000000e+05
1.375000000000e+05
1.437500000000e+05
1.500000000000e+05
1.562500000000e+05
1.625000000000e+05
1.687500000000e+05
1.750000000000e+05
1.812500000000e+05
1.875000000000e+05
1.937500000000e+05
2.000000000000e+05
</indep>
<dep ac.v(pr2) frequency>
-4.109028038129e-07+j0.000000000000e+00
2.117172478006e-07+j5.898702180816e-07
1.909102215474e-07-j1.563628351745e-07
-1.007926769268e-08-j6.460560433905e-09
4.156706874163e-09-j1.780596119217e-08
5.629322093265e-09-j1.165207504915e-09
-7.067301657779e-10-j2.182298203229e-09
2.546520547804e-09-j2.645873767042e-09
8.932643431678e-10+j1.851341695554e-11
4.604653233143e-10-j1.104189719864e-09
1.232439845090e-09-j6.923490878675e-10
2.328270362993e-10-j1.322730444571e-10
5.261178923848e-10-j6.778133361177e-10
5.192420947792e-10-j1.490367616787e-10
1.634623231921e-10-j2.578708877650e-10
3.536900373567e-10-j3.450207918042e-10
1.580265021972e-10+j4.788144572657e-11
3.511834691523e-10-j1.510951123069e-10
2.357283550420e-10-j2.855358775659e-10
1.168033692967e-10-j1.713599987661e-12
1.442811471681e-10-j1.945528016905e-10
1.510830755742e-10-j6.533758628555e-13
1.477399149609e-10-j1.516962617780e-11
1.912065131004e-10-j1.645030934306e-10
6.470017754161e-11+j2.266561282637e-11
1.717015405886e-10-j7.997501803637e-11
9.276680317001e-11-j5.974301948984e-11
8.993756042766e-11-j3.133186920134e-11
8.289892555453e-11+j1.869583465458e-11
1.838682161407e-10-j6.561023055922e-11
5.285263022107e-13-j2.186633647560e-11
1.463732613832e-10+j1.208413130408e-12
1.844655505317e-11+j0.000000000000e+00
</dep>
<dep ac.v(pr3) frequency>
9.593246921056e-02+j0.000000000000e+00
-8.842228516243e-02-j1.240341906439e-01
-1.907470201715e-02+j6.873275450090e-02
1.005110622435e-02-j9.851345741327e-03
1.720042294876e-03+j4.518662452456e-03
-1.303000995910e-03-j1.115959160240e-03
1.288278319762e-03-j6.631938531588e-05
-3.700304620343e-04+j5.833245353017e-04
3.800193234184e-06-j4.376590699323e-04
2.705537118637e-04+j2.283584134520e-04
-2.170741968076e-04+j2.843010395929e-05
1.257683632953e-04-j1.210913155516e-04
1.431852344162e-05+j1.403436406678e-04
-7.277356829282e-05-j6.416872155534e-05
8.559122763995e-05+j5.471510180137e-07
-4.229310173653e-05+j5.326888414157e-05
-1.017647215815e-06-j5.239523276032e-05
3.356541440515e-05+j3.331174074496e-05
-3.641375373351e-05+j3.539377586793e-06
2.154305112227e-05-j2.130332159914e-05
1.191635575900e-06+j2.763549291545e-05
-1.618622617982e-05-j1.385410724502e-05
1.857026313140e-05+j2.902764736355e-07
-1.081463657720e-05+j1.236117794419e-05
-7.295004773244e-07-j1.244909826881e-05
7.806315950562e-06+j7.993281653580e-06
-9.261884343859e-06+j8.895040281866e-07
4.525507378425e-06-j4.977112363722e-06
6.957957740354e-09+j5.907198554480e-06
-3.492942731763e-06-j2.475249233826e-06
2.373832612288e-06-j3.221760140615e-08
-9.269193082112e-07+j9.902917478127e-07
-5.080322276266e-07+j0.000000000000e+00
</dep>
<dep ac.v(pr4) frequency>
-3.914163233813e-02+j0.000000000000e+00
1.590996349755e-01-j1.614244097681e-02
-1.432292891333e-01-j1.233229565851e-01
-5.763353646275e-03+j1.225535294303e-01
3.172571303772e-02-j2.672089693425e-02
-3.106325438618e-03+j3.885755014947e-03
-3.002565468846e-04-j3.091744454582e-03
1.055507803814e-03+j5.273294123180e-04
-6.252769428107e-04-j1.376878614577e-05
