<Qucs Dataset 1.0.7>
<indep frequency 200>
  +1.00000000000000000000e+00
  +1.05956017927761592112e+00
  +1.12266777351081348257e+00
  +1.18953406737031963658e+00
  +1.26038292967972753722e+00
  +1.33545156292989886104e+00
  +1.41499129743457596753e+00
  +1.49926843278604571275e+00
  +1.58856512942805272459e+00
  +1.68318035333095683548e+00
  +1.78343087693190938126e+00
  +1.88965233969120971480e+00
  +2.00220037181558430106e+00
  +2.12145178491062980086e+00
  +2.24780583354872520729e+00
  +2.38168555197615816610e+00
  +2.52353917043476583260e+00
  +2.67384161583994695022e+00
  +2.83309610183932436556e+00
  +3.00183581357558892933e+00
  +3.18062569279411944123e+00
  +3.37006432927192856042e+00
  +3.57078596490046340506e+00
  +3.78346261713192921761e+00
  +4.00880632889846477696e+00
  +4.24757155253689866470e+00
  +4.50055767570049791715e+00
  +4.76861169771447013233e+00
  +5.05263106533567984968e+00
  +5.35356667741072556055e+00
  +5.67242606849197805730e+00
  +6.01027678207038285052e+00
  +6.36824994471858740752e+00
  +6.74754405311069316298e+00
  +7.14942898659757819502e+00
  +7.57525025877191282575e+00
  +8.02643352225717521264e+00
  +8.50448934180267990257e+00
  +9.01101825166501946285e+00
  +9.54771611420805754733e+00
  +1.01163797976620735142e+01
  +1.07189131920512750185e+01
  +1.13573335834310515935e+01
  +1.20337784077758946921e+01
  +1.27505124071301327859e+01
  +1.35099352119802649241e+01
  +1.43145893752347870276e+01
  +1.51671688847092287489e+01
  +1.60705281826163854930e+01
  +1.70276917222589965206e+01
  +1.80418640939207222118e+01
  +1.91164407538570237932e+01
  +2.02550193923066643720e+01
  +2.14614119785840387067e+01
  +2.27396575235792823833e+01
  +2.40940356023952553244e+01
  +2.55290806823951683668e+01
  +2.70495973046313480381e+01
  +2.86606761694825138420e+01
  +3.03677111803545756175e+01
  +3.21764175025073626557e+01
  +3.40928506974681226893e+01
  +3.61234269970943202566e+01
  +3.82749447851631146023e+01
  +4.05546073584082833463e+01
  +4.29700470432084102868e+01
  +4.55293507486694792874e+01
  +4.82410870416536994298e+01
  +5.11143348344016743567e+01
  +5.41587137807947271995e+01
  +5.73844164830239336084e+01
  +6.08022426164942544347e+01
  +6.44236350872137251145e+01
  +6.82607183427238624063e+01
  +7.23263389648353864914e+01
  +7.66341086800745756591e+01
  +8.11984499318400878565e+01
  +8.60346441668450552243e+01
  +9.11588829975082148849e+01
  +9.65883224115869865045e+01
  +1.02341140210545333389e+02
  +1.08436596868961004247e+02
  +1.14895100018730843772e+02
  +1.21738272773966144769e+02
  +1.28989026125330838113e+02
  +1.36671635646200684278e+02
  +1.44811822767453350025e+02
  +1.53436840893001175345e+02
  +1.62575566644379449599e+02
  +1.72258596539878624299e+02
  +1.82518349431904255198e+02
  +1.93389175045523131757e+02
  +2.04907468981584656831e+02
  +2.17111794569450296422e+02
  +2.30043011977291826042e+02
  +2.43744415012221992356e+02
  +2.58261876068267440587e+02
  +2.73643999707467060034e+02
  +2.89942285388287587011e+02
  +3.07211299886175822849e+02
  +3.25508859983505772107e+02
  +3.44896226040575641036e+02
  +3.65438307095725690488e+02
  +3.87203878181255447544e+02
  +4.10265810582719041122e+02
  +4.34701315812502457447e+02
  +4.60592204114510536783e+02
  +4.88025158365442848662e+02
  +5.17092024289675805448e+02
  +5.47890117959394046920e+02
  +5.80522551609490051305e+02
  +6.15098578858050132112e+02
  +6.51733960488242132669e+02
  +6.90551352016232954156e+02
  +7.31680714342719625165e+02
  +7.75259748862945798464e+02
  +8.21434358491942816727e+02
  +8.70359136148516085996e+02
  +9.22197882333432289670e+02
  +9.77124153534649849462e+02
  +1.03532184329566189263e+03
  +1.09698579789238306148e+03
  +1.16232246867985259087e+03
  +1.23155060329282537168e+03
  +1.30490197801440262992e+03
  +1.38262217376465582674e+03
  +1.46497139830728519883e+03
  +1.55222535742704758377e+03
  +1.64467617799466347606e+03
  +1.74263338600964925718e+03
  +1.84642494289554406350e+03
  +1.95639834351706372217e+03
  +2.07292177959537002607e+03
  +2.19638537241654648824e+03
  +2.32720247896040837077e+03
  +2.46581107582260392519e+03
  +2.61267522556332824024e+03
  +2.76828663039206458052e+03
  +2.93316627839004513589e+03
  +3.10786618778201273017e+03
  +3.29297125509714896907e+03
  +3.48910121340677005719e+03
  +3.69691270719502972497e+03
  +3.91710149080926112219e+03
  +4.15040475785047601676e+03
  +4.39760360930271872348e+03
  +4.65952566866467805085e+03
  +4.93704785283899764181e+03
  +5.23109930805626481742e+03
  +5.54266452066310739610e+03
  +5.87278661318948070402e+03
  +6.22257083673022680159e+03
  +6.59318827133354170655e+03
  +6.98587974678524005867e+03
  +7.40195999691564611567e+03
  +7.84282206133768067957e+03
  +8.30994194935339146468e+03
  +8.80488358164345845580e+03
  +9.32930402628467527393e+03
  +9.88495904662559041753e+03
  +1.04737089795944975776e+04
  +1.10975249641207192326e+04
  +1.17584955405215623614e+04
  +1.24588336429500704980e+04
  +1.32008840083141658397e+04
  +1.39871310264723906585e+04
  +1.48202070579885858024e+04
  +1.57029012472937683924e+04
  +1.66381688607612777560e+04
  +1.76291411809594610531e+04
  +1.86791359902078365849e+04
  +1.97916686785355777829e+04
  +2.09704640132323256694e+04
  +2.22194686093952259398e+04
  +2.35428641432241602161e+04
  +2.49450813523031392833e+04
  +2.64308148697410651948e+04
  +2.80050389418363120058e+04
  +2.96730240818886886700e+04
  +3.14403547159149820800e+04
  +3.33129478793467060314e+04
  +3.52970730273065200890e+04
  +3.73993730247879866511e+04
  +3.96268863870147761190e+04
  +4.19870708444390838849e+04
  +4.44878283112758217612e+04
  +4.71375313411671886570e+04
  +4.99450511585514250328e+04
  +5.29197873595844284864e+04
  +5.60716993820545685594e+04
  +5.94113398496503068600e+04
  +6.29498899022188270465e+04
  +6.66991966303011431592e+04
  +7.06718127392749302089e+04
  +7.48810385759002238046e+04
  +7.93409666579748882214e+04
  +8.40665288561831985135e+04
  +8.90735463861043099314e+04
  +9.43787827777538623195e+04
  +1.00000000000000014552e+05
</indep>
<dep S[3,3] frequency>
  +3.74798086788516880237e-07+j6.12610338162555335441e-04
  +4.20773714351680245825e-07+j6.49097489929468477593e-04
  +4.72389064621925262290e-07+j6.87757817348577486782e-04
  +5.30335948836821106432e-07+j7.28720754080770783366e-04
  +5.95391040157278401513e-07+j7.72123442676078187465e-04
  +6.68426284727318052479e-07+j8.18111193678030374464e-04
  +7.50420587391370174458e-07+j8.66837972065071199305e-04
  +8.42472932578568760584e-07+j9.18466912655835723313e-04
  +9.45817113982010550318e-07+j9.73170866201742909563e-04
  +1.06183827040846878313e-06+j1.03113297799269781896e-03
  +1.19209145184607029290e-06+j1.09254730091005287061e-03
  +1.33832246061478107826e-06+j1.15761944497575928678e-03
  +1.50249125077302665709e-06+j1.22656726556812718971e-03
  +1.68679819685188275094e-06+j1.29962159260328105267e-03
  +1.89371358463816384613e-06+j1.37702700311756985607e-03
  +2.12601072059906488057e-06+j1.45904263983036622775e-03
  +2.38680310076960141091e-06+j1.54594307841927252126e-03
  +2.67958613937020628278e-06+j1.63801924640120965572e-03
  +3.00828401765977725797e-06+j1.73557939668372114214e-03
  +3.37730227571039482080e-06+j1.83895013903158789474e-03
  +3.79158685792460879081e-06+j1.94847753288499405191e-03
  +4.25669039893334343050e-06+j2.06452824516767082311e-03
  +4.77884664102581839637e-06+j2.18749077693717545318e-03
  +5.36505397790606681824e-06+j2.31777676295534832904e-03
  +6.02316924589404107456e-06+j2.45582234849569657625e-03
  +6.76201301806269252270e-06+j2.60208964795651150059e-03
  +7.59148781160761994410e-06+j2.75706829011476564975e-03
  +8.52271079398646158490e-06+j2.92127705513663691109e-03
  +9.56816276285855212230e-06+j3.09526560875688630178e-03
  +1.07418553961787984901e-05+j3.27961633935157153771e-03
  +1.20595190134809789230e-05+j3.47494630395764813810e-03
  +1.35388133615172910168e-05+j3.68190928963940764668e-03
  +1.51995642462650758123e-05+j3.90119799696598450536e-03
  +1.70640291812494083123e-05+j4.13354635274701658759e-03
  +1.91571956064859577184e-05+j4.37973195957538224965e-03
  +2.15071156708231082597e-05+j4.64057869014715754230e-03
  +2.41452820568437659485e-05+j4.91695943476995554061e-03
  +2.71070498775748484606e-05+j5.20979901093157442282e-03
  +3.04321102883103880511e-05+j5.52007724428164262692e-03
  +3.41650221469477709236e-05+j5.84883223087922111266e-03
  +3.83558088327463049343e-05+j6.19716379107858924419e-03
  +4.30606281975403642104e-05+j6.56623712596304635880e-03
  +4.83425246040077892583e-05+j6.95728668779078528867e-03
  +5.42722730936612152305e-05+j7.37162027648617310116e-03
  +6.09293269539381315727e-05+j7.81062337479147914682e-03
  +6.84028813303886196878e-05+j8.27576373528486446129e-03
  +7.67930670661528917698e-05+j8.76859623306613933380e-03
  +8.62122906848156623106e-05+j9.29076799850660564606e-03
  +9.67867383585831821168e-05+j9.84402384504715413649e-03
  +1.08658063882886585932e-04+j1.04302120076001821058e-02
  +1.21985283099802042516e-04+j1.10512902076558231640e-02
  +1.36946899937341078210e-04+j1.17093320616987878191e-02
  +1.53743292276032879427e-04+j1.24065338499919214366e-02
  +1.72599389262787590495e-04+j1.31452216631580253575e-02
  +1.93767675507320317379e-04+j1.39278589442683436300e-02
  +2.17531561855448723813e-04+j1.47570544442964645543e-02
  +2.44209167206897097106e-04+j1.56355706087851278885e-02
  +2.74157561158694027242e-04+j1.65663324133601963517e-02
  +3.07777523209232467625e-04+j1.75524366652596020000e-02
  +3.45518880872897472638e-04+j1.85971617872678039729e-02
  +3.87886496456468646624e-04+j1.97039780992844769381e-02
  +4.35446980462877259940e-04+j2.08765586111263265479e-02
  +4.88836218745420845143e-04+j2.21187903379605650678e-02
  +5.48767810697299140282e-04+j2.34347861468759757764e-02
  +6.16042527038053195493e-04+j2.48288971393699001156e-02
  +6.91558908250051985155e-04+j2.63057255697938009720e-02
  +7.76325138527622117535e-04+j2.78701382938557271074e-02
  +8.71472345336020285181e-04+j2.95272807338826451251e-02
  +9.78269491446092731915e-04+j3.12825913384171885867e-02
  +1.09814004471059205315e-03+j3.31418165025273506186e-02
  +1.23268063098098609731e-03+j3.51110259015489506451e-02
  +1.38368189749007736850e-03+j3.71966281743996776687e-02
  +1.55315183781878527955e-03+j3.94053868725560973996e-02
  +1.74334185522808629738e-03+j4.17444365666413547133e-02
  +1.95677586863241773779e-03+j4.42212989735922337720e-02
  +2.19628279473848934955e-03+j4.68438989327069135737e-02
  +2.46503277064775766156e-03+j4.96205800175306410704e-02
  +2.76657751323062910120e-03+j5.25601195213756811064e-02
  +3.10489524433073824441e-03+j5.56717424959971007858e-02
  +3.48444064366557754164e-03+j5.89651344540744817846e-02
  +3.91020032320635660406e-03+j6.24504522650091015157e-02
  +4.38775434654022859077e-03+j6.61383326782745417649e-02
  +4.92334434253589945524e-03+j7.00398977970856789765e-02
  +5.52394878227297284057e-03+j7.41667566952292495186e-02
  +6.19736599876551368798e-03+j7.85310022191218481957e-02
  +6.95230552674249401013e-03+j8.31452018430199890631e-02
  +7.79848831995027125946e-03+j8.80223812452623211033e-02
  +8.74675636015842181137e-03+j9.31759990450713726506e-02
  +9.80919209795393445828e-03+j9.86199108806463525800e-02
  +1.09992480514451325402e-02+j1.04368320718501203515e-01
  +1.23318867241987376732e-02+j1.10435716960629440320e-01
  +1.38237307749039597948e-02+j1.16836790560937750505e-01
  +1.54932230627549648305e-02+j1.23586331978422364619e-01
  +1.73607957861115075326e-02+j1.30699103387655779507e-01
  +1.94490474066901751493e-02+j1.38189682147247028254e-01
  +2.17829253838914028985e-02+j1.46072271109401047307e-01
  +2.43899119083371904160e-02+j1.54360470960934748064e-01
  +2.73002087935547109454e-02+j1.63067009449533950605e-01
  +3.05469164336620510602e-02+j1.72203422111299575548e-01
  +3.41662002393184477400e-02+j1.81779679032997104615e-01
  +3.81974362068508016543e-02+j1.91803752327173865355e-01
  +4.26833252504386362336e-02+j2.02281119460922365061e-01
  +4.76699636465604814628e-02+j2.13214198469539595315e-01
  +5.32068544423256947762e-02+j2.24601712534239661423e-01
  +5.93468420408990032788e-02+j2.36437983555165542882e-01
  +6.61459495240271644345e-02+j2.48712157365239966422e-01
  +7.36630957934999441861e-02+j2.61407367265282575275e-01
  +8.19596675774992705632e-02+j2.74499847757378734325e-01
  +9.10989201103310358709e-02+j2.87958016809594596896e-01
  +1.01145180305482446093e-01+j3.01741552720083461292e-01
  +1.12162828042130999218e-01+j3.15800500558039154431e-01
  +1.24215035381571844986e-01+j3.30074452961805431261e-01
  +1.37362250752527559339e-01+j3.44491860256899262716e-01
  +1.51660425970492701575e-01+j3.58969534620789954005e-01
  +1.67158998802473979239e-01+j3.73412421252683091044e-01
  +1.83898662767969511833e-01+j3.87713714778300022612e-01
  +2.01908978624901092047e-01+j4.01755399753814190777e-01
  +2.21205907535412693576e-01+j4.15409288340748639179e-01
  +2.41789372482008879661e-01+j4.28538614336725798282e-01
  +2.63640979529400520942e-01+j4.41000219541135274337e-01
  +2.86722050684032447876e-01+j4.52647335516584092829e-01
  +3.10972131603575563386e-01+j4.63332922007591851976e-01
  +3.36308136468074558856e-01+j4.72913474964050450922e-01
  +3.62624275819392327680e-01+j4.81253166307589519413e-01
  +3.89792879400053360328e-01+j4.88228129762136975334e-01
  +4.17666175396150751720e-01+j4.93730668651320703244e-01
  +4.46079023025675258651e-01+j4.97673138961699845773e-01
  +4.74852522764406037581e-01+j4.99991259464610149355e-01
  +5.03798355448605961193e-01+j5.00646623265442625161e-01
  +5.32723636898354113711e-01+j4.99628231595384664221e-01
  +5.61436027066372078664e-01+j4.96952937203092359741e-01
  +5.89748808635629284680e-01+j4.92664764342317484935e-01
  +6.17485652897685644014e-01+j4.86833155890906144059e-01
  +6.44484820224736298933e-01+j4.79550275714860529952e-01
  +6.70602594316923594775e-01+j4.70927557162843346550e-01
  +6.95715816539110298855e-01+j4.61091730160619273082e-01
  +7.19723460351927024625e-01+j4.50180576749012961724e-01
  +7.42547257347153100149e-01+j4.38338658590201546428e-01
  +7.64131448315843453400e-01+j4.25713233515576439103e-01
  +7.84441779994123344899e-01+j4.12450537227347258096e-01
  +8.03463898202243398394e-01+j3.98692557300221905869e-01
  +8.21201301098362312914e-01+j3.84574375934869649996e-01
  +8.37673014279402661231e-01+j3.70222110701353301909e-01
  +8.52911135802532749395e-01+j3.55751442451117005916e-01
  +8.66958377707222505038e-01+j3.41266688693692421541e-01
  +8.79865705010367427086e-01+j3.26860359570463387957e-01
  +8.91690146602591604541e-01+j3.12613121509195679426e-01
  +9.02492827400221075962e-01+j2.98594089360455672288e-01
  +9.12337249092725066646e-01+j2.84861369582715850957e-01
  +9.21287828712265333131e-01+j2.71462783075211822048e-01
  +9.29408690281799731991e-01+j2.58436704922881066437e-01
  +9.36762694780228444280e-01+j2.45812968252307278982e-01
  +9.43410687136143510934e-01+j2.33613789555206119442e-01
  +9.49410935329188299114e-01+j2.21854682482371334817e-01
  +9.54818735309456489979e-01+j2.10545335785973286580e-01
  +9.59686155744635893683e-01+j1.99690438552579674347e-01
  +9.64061898049505372477e-01+j1.89290442049020929405e-01
  +9.67991249312131984972e-01+j1.79342252437433041790e-01
  +9.71516108268737021980e-01+j1.69839852413889852434e-01
  +9.74675067144327833546e-01+j1.60774852633512266298e-01
  +9.77503534793070394393e-01+j1.52136975763305121179e-01
  +9.80033889025830551311e-01+j1.43914477308764360286e-01
  +9.82295648234277174460e-01+j1.36094508135460451337e-01
  +9.84315654378263293900e-01+j1.28663423978635005351e-01
  +9.86118261087445047153e-01+j1.21607047309419347147e-01
  +9.87725522047551707239e-01+j1.14910886793747363255e-01
  +9.89157376015239564460e-01+j1.08560319310244290936e-01
  +9.90431825758078088207e-01+j1.02540739141995157491e-01
  +9.91565108976143250175e-01+j9.68376785668363521120e-02
  +9.92571859858231819729e-01+j9.14369036733623935520e-02
  +9.93465260387984439028e-01+j8.63244888476465965788e-02
  +9.94257180871147339118e-01+j8.14868730231569499134e-02
  +9.94958309430810206031e-01+j7.69109004709798982358e-02
  +9.95578270435876988564e-01+j7.25838486306236568835e-02
  +9.96125732008718678401e-01+j6.84934452395445786399e-02
  +9.96608502915755645191e-01+j6.46278768043238166507e-02
  +9.97033619289008243847e-01+j6.09757902577780369624e-02
  +9.97407421761148160755e-01+j5.75262894532567251038e-02
  +9.97735623719501862894e-01+j5.42689279503871663257e-02
  +9.98023371489717092686e-01+j5.11936993393598965829e-02
  +9.98275297338870770680e-01+j4.82910261319933475921e-02
  +9.98495566232005082874e-01+j4.55517480210538977525e-02
  +9.98687917279118653191e-01+j4.29671100830785954172e-02
  +9.98855700769340937306e-01+j4.05287512858010789962e-02
  +9.99001911608476067528e-01+j3.82286934715855009070e-02
  +9.99129219863326034634e-01+j3.60593308337541149089e-02
  +9.99239998983045274450e-01+j3.40134197904392934775e-02
  +9.99336352127708105186e-01+j3.20840690928335253718e-02
  +9.99420136900438182970e-01+j3.02647299787324360054e-02
  +9.99492988662535886135e-01+j2.85491861912144095914e-02
  +9.99556342518185481083e-01+j2.69315437166908477895e-02
  +9.99611453989639131557e-01+j2.54062201459824173189e-02
  +9.99659418364697849313e-01+j2.39679336167865353335e-02
  +9.99701188682430075261e-01+j2.26116913479403151832e-02
  +9.99737592325313673136e-01+j2.13327778196927102250e-02
  +9.99769346200603981067e-01+j2.01267426866996237966e-02
  +9.99797070515277885860e-01+j1.89893885307463906875e-02
  +9.99821301172752696651e-01+j1.79167585690329124459e-02
  +9.99842500842271553196e-01+j1.69051244330423525164e-02
  +9.99861068771123906451e-01+j1.59509741248763763088e-02
</dep>
<dep S[3,4] frequency>
  +9.99999604969231681295e-01-j6.44026252288195451452e-04
  +9.99999556511707132778e-01-j6.82384539919593372838e-04
  +9.99999502110011095901e-01-j7.23027448085008226687e-04
  +9.99999441034987390786e-01-j7.66091048064526094694e-04
  +9.99999372468034608552e-01-j8.11719515354179278754e-04
  +9.99999295490137107834e-01-j8.60065612313963665132e-04
  +9.99999209069545424988e-01-j9.11291199554771524406e-04
  +9.99999112047949334503e-01-j9.65567777774485841262e-04
  +9.99999003124951268973e-01-j1.02307706185505303820e-03
  +9.99998880840638038059e-01-j1.08401158913995119236e-03
  +9.99998743556014368927e-01-j1.14857536392538634069e-03
  +9.99998589431034257125e-01-j1.21698454031920685892e-03
  +9.99998416399939249466e-01-j1.28946814574923754315e-03
  +9.99998222143573034515e-01-j1.36626884753802166177e-03
  +9.99998004058295975049e-01-j1.44764376510407750953e-03
  +9.99997759221091131465e-01-j1.53386533050137554082e-03
  +9.99997484350386822705e-01-j1.62522220016911864496e-03
  +9.99997175762075141137e-01-j1.72202022093365558937e-03
  +9.99996829320138114205e-01-j1.82458345348397873130e-03
  +9.99996440381210716097e-01-j1.93325525673224184534e-03
  +9.99996003732352867210e-01-j2.04839943667173675704e-03
  +9.99995513521181877969e-01-j2.17040146355724529459e-03
  +9.99994963177441187341e-01-j2.29966976145741779786e-03
  +9.99994345324942579545e-01-j2.43663707446624151071e-03
  +9.99993651682715700701e-01-j2.58176191411161638778e-03
  +9.99992872954028166887e-01-j2.73553009276401772748e-03
  +9.99991998701795115068e-01-j2.89845634812807735614e-03
  +9.99991017208713084408e-01-j3.07108606419510864541e-03
  +9.99989915320235178697e-01-j3.25399709434612358777e-03
  +9.99988678268292963125e-01-j3.44780169262313279654e-03
  +9.99987289473398432982e-01-j3.65314855953240320841e-03
  +9.99985730322481614074e-01-j3.87072500910746802524e-03
  +9.99983979919482401932e-01-j4.10125926434254210740e-03
  +9.99982014805363417231e-01-j4.34552288850945447884e-03
  +9.99979808643789991329e-01-j4.60433336029349334073e-03
  +9.99977331868279306626e-01-j4.87855680112632417167e-03
  +9.99974551286082702362e-01-j5.16911086355757373734e-03
  +9.99971429633517483460e-01-j5.47696778999095645196e-03
  +9.99967925076786889882e-01-j5.80315765161601611333e-03
